EXPLAIN
TAG	EISPOT
TITLE	LABEL		Test &Identifier
DATE	LABEL	1/14/2019	Date
TIME	LABEL	13:00:50	Time
NOTES	NOTES	1	&Notes...
	
PSTAT	PSTAT	IFC1010-20111	Potentiostat
VDC	POTEN	0.00000E+000	T	DC &Voltage (V)
FREQINIT	QUANT	1.00000E+006	Initial Fre&q. (Hz)
FREQFINAL	QUANT	1.00000E-001	Final Fre&q. (Hz)
PTSPERDEC	QUANT	1.00000E+001	Points/&decade
VAC	QUANT	1.00000E+001	AC &Voltage (mV rms)
AREA	QUANT	1.00000E+000	&Area (cm^2)
CONDIT	TWOPARAM	F	1.00000E+003	5.00000E-002	Conditionin&g	Time(s)	E(V)
DELAY	TWOPARAM	T	1.00000E+001	0.00000E+000	Init. De&lay	Time(s)	Stab.(mV/s)
SPEED	SELECTOR	1	&Optimize for:
ZGUESS	QUANT	1.00000E+003	E&stimated Z (ohms)
OCVCURVE	TABLE	39
	Pt	T	Vf	Vm	Ach	Over	Temp
	#	s	V vs. Ref.	V	V	bits	deg C
	0	0.258333	9.60550E-002	9.60550E-002	0.00000E+000	...........	1420.30
	1	0.516667	9.60551E-002	9.60587E-002	0.00000E+000	...........	1420.30
	2	0.775	9.60555E-002	9.60611E-002	0.00000E+000	...........	1420.30
	3	1.03333	9.60565E-002	9.60608E-002	0.00000E+000	...........	1420.39
	4	1.29167	9.60581E-002	9.60615E-002	0.00000E+000	...........	1420.39
	5	1.55	9.60596E-002	9.60642E-002	0.00000E+000	...........	1420.39
	6	1.80833	9.60610E-002	9.60639E-002	0.00000E+000	...........	1420.39
	7	2.06667	9.60622E-002	9.60680E-002	0.00000E+000	...........	1420.39
	8	2.325	9.60635E-002	9.60678E-002	0.00000E+000	...........	1420.39
	9	2.58333	9.60650E-002	9.60695E-002	0.00000E+000	...........	1420.39
	10	2.84167	9.60665E-002	9.60702E-002	0.00000E+000	...........	1420.39
	11	3.1	9.60680E-002	9.60749E-002	0.00000E+000	...........	1420.39
	12	3.35833	9.60695E-002	9.60732E-002	0.00000E+000	...........	1420.39
	13	3.61667	9.60712E-002	9.60763E-002	0.00000E+000	...........	1420.39
	14	3.875	9.60728E-002	9.60767E-002	0.00000E+000	...........	1420.39
	15	4.13333	9.60743E-002	9.60783E-002	0.00000E+000	...........	1420.13
	16	4.39167	9.60755E-002	9.60760E-002	0.00000E+000	...........	1420.13
	17	4.65	9.60765E-002	9.60787E-002	0.00000E+000	...........	1420.13
	18	4.90833	9.60772E-002	9.60831E-002	0.00000E+000	...........	1420.02
	19	5.16667	9.60780E-002	9.60808E-002	0.00000E+000	...........	1419.95
	20	5.425	9.60792E-002	9.60809E-002	0.00000E+000	...........	1419.95
	21	5.68333	9.60803E-002	9.60812E-002	0.00000E+000	...........	1419.95
	22	5.94167	9.60811E-002	9.60852E-002	0.00000E+000	...........	1420.30
	23	6.2	9.60816E-002	9.60838E-002	0.00000E+000	...........	1420.30
	24	6.45833	9.60824E-002	9.60836E-002	0.00000E+000	...........	1420.30
	25	6.71667	9.60833E-002	9.60911E-002	0.00000E+000	...........	1420.30
	26	6.975	9.60845E-002	9.60883E-002	0.00000E+000	...........	1420.39
	27	7.23333	9.60860E-002	9.60906E-002	0.00000E+000	...........	1420.39
	28	7.49167	9.60876E-002	9.60905E-002	0.00000E+000	...........	1420.39
	29	7.75	9.60890E-002	9.60914E-002	0.00000E+000	...........	1420.39
	30	8.00833	9.60900E-002	9.60927E-002	0.00000E+000	...........	1420.39
	31	8.26667	9.60907E-002	9.60912E-002	0.00000E+000	...........	1420.39
	32	8.525	9.60914E-002	9.60942E-002	0.00000E+000	...........	1420.39
	33	8.78333	9.60920E-002	9.60966E-002	0.00000E+000	...........	1420.39
	34	9.04167	9.60928E-002	9.60966E-002	0.00000E+000	...........	1420.39
	35	9.3	9.60941E-002	9.60976E-002	0.00000E+000	...........	1420.39
	36	9.5583	9.60955E-002	9.61021E-002	0.00000E+000	...........	1420.39
	37	9.8167	9.60970E-002	9.61014E-002	0.00000E+000	...........	1420.39
	38	10.075	9.60986E-002	9.61012E-002	0.00000E+000	...........	1420.39
EOC	QUANT	0.0960986	Open Circuit (V)
PSTATMODEL	IQUANT	64	Pstat Model
PSTATSECTION	LABEL	IFC1010-20111	Pstat Section
PSTATSERIALNO	LABEL	20111	Pstat Serial Number
CTRLMODE	IQUANT	1	Control Mode
ELECTROMETER	IQUANT	0	RE=0 or CS=1
IESTAB	IQUANT	0	I/E Stability
CASPEED	IQUANT	3	Control Amp Speed
CONVENTION	IQUANT	1	Current Convention
ICHRANGE	IQUANT	2	Ich Range
ICHRANGEMODE	TOGGLE	F	Ich Auto Range
ICHOFFSETENABLE	TOGGLE	T	Ich Offset Enable
ICHOFFSET	QUANT	0	Ich Offset (V)
ICHFILTER	IQUANT	4	Ich Filter
VCHRANGE	IQUANT	2	Vch Range
VCHRANGEMODE	TOGGLE	F	Vch Auto Range
VCHOFFSETENABLE	TOGGLE	T	Vch Offset Enable
VCHOFFSET	QUANT	0	Vch Offset (V)
VCHFILTER	IQUANT	4	Vch Filter
IERANGELOWERLIMIT	IQUANT	4	I/E Range Lower Limit
IERANGEMODE	TOGGLE	F	I/E AutoRange
IERANGE	IQUANT	9	I/E Range
ACHSELECT	IQUANT	0	Ach Select
ACHRANGE	IQUANT	2	Ach Range
ACHOFFSETENABLE	TOGGLE	F	Ach Offset Enable
ACHOFFSET	QUANT	0	Ach Offset (V)
ACHFILTER	IQUANT	1	Ach Filter
SENSECABLEID	IQUANT	14	Sense Cable ID
PWRCABLEID	IQUANT	14	Power Cable ID
DCCALDATE	LABEL	10/28/2018	DC Calibration Date
ACCALDATE	LABEL	12/17/2017	AC Calibration Date
FRAMEWORKVERSION	QUANT	7.06	Framework Version
INSTRUMENTVERSION	LABEL	4.30	Instrument Version
ZCURVE	TABLE
	Pt	Time	Freq	Zreal	Zimag	Zsig	Zmod	Zphz	Idc	Vdc	IERange
	#	s	Hz	ohm	ohm	V	ohm	°	A	V	#
	0	1	1000020	10.37967	0.4592606	1	10.38983	2.533466	1.552946E-006	0.0967054	10
	1	3	794355.5	10.38104	0.3214542	1	10.38602	1.773626	1.040644E-008	0.096706	10
	2	4	630996.1	10.39585	0.1930313	1	10.39764	1.063752	-1.859644E-007	0.0967175	10
	3	6	501269.5	10.41469	0.0736436	1	10.41495	0.4051388	-8.961752E-006	0.0966675	10
	4	7	398144.5	10.42916	-0.0412065	1	10.42924	-0.2263792	-4.014271E-007	0.0967193	10
	5	8	316230.5	10.4417	-0.1514998	1	10.4428	-0.8312529	-9.238256E-007	0.0967157	10
	6	10	251191.4	10.46307	-0.2615129	1	10.46634	-1.431746	-9.189826E-006	0.09666	10
	7	11	199628.9	10.46672	-0.386997	1	10.47387	-2.117492	-8.692506E-006	0.0966605	10
	8	12	158496.1	10.4848	-0.5337563	1	10.49838	-2.914277	-8.281976E-006	0.0966619	10
	9	14	125918	10.50928	-0.7077879	1	10.53309	-3.852985	3.670775E-007	0.0967169	10
	10	15	100019.5	10.55211	-0.9070619	1	10.59102	-4.913081	1.638503E-006	0.0963732	10
	11	16	79511.72	10.57321	-1.13356	1	10.6338	-6.119339	-3.175544E-006	0.0963324	10
	12	18	63105.47	10.65555	-1.438249	1	10.75218	-7.687128	-3.160478E-006	0.0963342	10
	13	19	50214.84	10.74232	-1.782362	1	10.88918	-9.420671	1.517409E-006	0.096371	10
	14	20	39902.34	10.85705	-2.194213	1	11.07656	-11.4256	-3.170087E-006	0.0963312	10
	15	22	31699.22	11.00763	-2.685826	1	11.33056	-13.71206	-3.242574E-006	0.096332	10
	16	23	25136.72	11.20184	-3.272802	1	11.67015	-16.2866	1.470187E-006	0.09637	10
	17	24	19980.47	11.45123	-3.965969	1	12.11856	-19.1028	-3.21074E-006	0.0963312	10
	18	26	15878.91	11.77301	-4.786957	1	12.709	-22.12688	-3.223656E-006	0.0963327	10
	19	27	12597.66	12.17992	-5.761296	1	13.47379	-25.3149	-3.274332E-006	0.0963338	10
	20	28	10019.53	12.69291	-6.894285	1	14.44441	-28.50906	-3.29219E-006	0.0963373	10
	21	30	7928.241	13.35459	-8.247815	1	15.69623	-31.69954	-9.355708E-007	0.0963529	10
	22	31	6307.871	14.16305	-9.79259	1	17.21879	-34.66069	-9.319961E-007	0.0963547	10
	23	33	5034.722	15.17218	-11.53706	1	19.0604	-37.24969	-4.249412E-007	0.0963794	9
	24	34	3993.056	16.44746	-13.59802	1	21.34069	-39.58242	-4.476572E-007	0.0963797	9
	25	36	3144.055	18.08607	-16.01349	1	24.15653	-41.52182	-4.734493E-007	0.0963812	9
	26	37	2519.531	19.94662	-18.50961	1	27.21164	-42.86	-4.31854E-007	0.096381	9
	27	38	2000.762	22.29034	-21.37408	1	30.88221	-43.79787	-4.399693E-007	0.0963802	9
	28	40	1580.669	25.14398	-24.55321	1	35.1437	-44.31894	-4.61662E-007	0.0963789	9
	29	41	1253.634	28.42311	-27.90519	1	39.83181	-44.47321	-4.816836E-007	0.0963783	9
	30	42	1000.702	32.06131	-31.35993	1	44.84834	-44.36639	-4.843887E-007	0.0963777	9
	31	43	790.0281	36.31554	-35.22721	1	50.59422	-44.12847	-4.530796E-007	0.0963777	9
	32	45	628.811	40.81241	-39.28382	1	56.6469	-43.90667	-4.880375E-007	0.0963769	9
	33	46	502.2321	45.63702	-43.7533	1	63.22254	-43.79279	-4.333987E-007	0.096378	9
	34	47	400.1524	51.02607	-48.91782	1	70.68673	-43.79156	-4.347171E-007	0.0963776	9
	35	49	315.5048	57.46274	-55.18816	1	79.67245	-43.84328	-4.465072E-007	0.0963773	9
	36	50	252.0161	64.65523	-62.02791	1	89.59777	-43.8119	-4.300275E-007	0.0963782	9
	37	51	200.3205	73.59103	-69.86942	1	101.476	-43.51398	-4.293738E-007	0.0963771	9
	38	52	158.0056	85.05312	-78.53209	1	115.7641	-42.71722	-4.235107E-007	0.0963781	9
	39	54	125.558	98.755	-86.82793	1	131.4976	-41.32278	-4.327628E-007	0.0963781	9
	40	55	99.734	115.1406	-94.1452	1	148.7302	-39.2713	-4.390797E-007	0.0963784	9
	41	56	79.44915	133.8764	-99.1867	1	166.616	-36.5341	-5.474618E-007	0.0963799	9
	42	58	62.91946	153.7306	-101.6645	1	184.3062	-33.4773	-2.395142E-007	0.0963804	8
	43	59	49.86702	174.5078	-100.9657	1	201.6111	-30.05258	-2.418558E-007	0.0963767	8
	44	60	40.0641	192.8918	-97.1055	1	215.9554	-26.72158	-2.462148E-007	0.096377	8
	45	61	31.6723	211.0751	-90.04197	1	229.4783	-23.10248	-2.592582E-007	0.0963787	8
	46	63	24.93351	226.4965	-81.74844	1	240.7976	-19.84582	-2.880067E-007	0.0963769	8
	47	64	20.03205	237.9967	-73.7142	1	249.1509	-17.20921	-2.989816E-007	0.0963784	8
	48	65	15.78283	248.2626	-64.93118	1	256.6133	-14.65696	-3.15659E-007	0.0963787	8
	49	67	12.46675	256.3282	-57.05968	1	262.6023	-12.54965	-3.441033E-007	0.0963807	8
	50	68	9.9734	262.5241	-50.48881	1	267.3351	-10.88624	-3.756994E-007	0.0963799	8
	51	70	7.878151	267.8751	-44.48141	1	271.5431	-9.428098	-4.00694E-007	0.0963805	8
	52	72	6.351626	271.9694	-39.90316	1	274.8811	-8.346844	-4.26983E-007	0.096381	8
	53	74	5.013369	275.7569	-35.79184	1	278.07	-7.395357	-4.594352E-007	0.0963797	8
	54	76	3.985969	278.912	-32.69358	1	280.8217	-6.685602	-4.884863E-007	0.0963809	8
	55	78	3.175813	281.6363	-30.42757	1	283.2752	-6.166235	-5.169919E-007	0.0963814	8
	56	81	2.516103	284.4823	-28.76387	1	285.9327	-5.773528	-5.576186E-007	0.0963827	8
	57	84	1.99553	286.829	-28.16514	1	288.2086	-5.608172	-5.959773E-007	0.0963848	8
	58	88	1.583615	289.1289	-28.46799	1	290.527	-5.623289	-5.865884E-007	0.0963815	8
	59	92	1.258052	291.4208	-29.58872	1	292.919	-5.797523	-5.859567E-007	0.0963835	8
	60	97	0.997765	293.9143	-31.61208	1	295.6094	-6.138873	-6.578248E-007	0.0963827	8
	61	102	0.7927448	296.5405	-34.56372	1	298.548	-6.648198	-6.712144E-007	0.0963833	8
	62	108	0.6290258	299.4798	-38.50173	1	301.9445	-7.325878	-6.613708E-007	0.0963821	8
	63	116	0.4988825	302.7864	-43.56596	1	305.9045	-8.187724	-6.325976E-007	0.0963844	8
	64	125	0.3985969	306.3875	-49.59464	1	310.3755	-9.194658	-5.947437E-007	0.096384	8
	65	136	0.316723	310.5873	-57.05689	1	315.7847	-10.40954	-5.590192E-007	0.096384	8
	66	150	0.2514753	315.2894	-66.13048	1	322.15	-11.8458	-5.132682E-007	0.0963846	8
	67	167	0.1999787	320.5155	-76.96382	1	329.6265	-13.50251	-4.593508E-007	0.0963865	8
	68	188	0.1587906	326.4167	-90.10755	1	338.6255	-15.4322	-4.04694E-007	0.0963853	8
	69	214	0.1260081	333.0087	-106.0313	1	349.4817	-17.66169	-3.576736E-007	0.0963844	8
	70	245	0.1001603	341.235	-125.5985	1	363.6156	-20.20717	-6.292582E-007	0.0963855	8
